T3370 3592:895 SEGGER J-Link V6.44a Log File (0000ms, 57196ms total)
T3370 3592:895 DLL Compiled: Mar  8 2019 17:31:48 (0000ms, 57196ms total)
T3370 3592:895 Logging started @ 2019-07-06 13:24 (0000ms, 57196ms total)
T3370 3592:895 JLINK_SetWarnOutHandler(...) (0000ms, 57196ms total)
T3370 3592:895 JLINK_OpenEx(...)
Firmware: J-Link ARM V8 compiled Nov 28 2014 13:44:46
Hardware: V8.00
S/N: 16864320
Feature(s): RDI,FlashDL,FlashBP,JFlash,GDB
TELNET listener socket opened on port 19021WEBSRV 
Starting webserver (0013ms, 57209ms total)
T3370 3592:895 WEBSRV Webserver running on local port 19080 (0013ms, 57209ms total)
T3370 3592:895   returns O.K. (0013ms, 57209ms total)
T3370 3592:908 JLINK_GetEmuCaps()  returns 0xB9FF7BBF (0000ms, 57209ms total)
T3370 3592:909 JLINK_TIF_GetAvailable(...) (0000ms, 57209ms total)
T3370 3592:909 JLINK_SetErrorOutHandler(...) (0000ms, 57209ms total)
T3370 3592:909 JLINK_ExecCommand("ProjectFile = "D:\FIles\Smart irrigation system by lora\Level_7_Smart irregation sensor test\stm32_ku_V2\JLinkSettings.ini"", ...).   returns 0x00 (0002ms, 57211ms total)
T3370 3592:911 JLINK_ExecCommand("Device = STM32F103C8", ...). Device "STM32F103C8" selected.  returns 0x00 (0002ms, 57213ms total)
T3370 3592:913 JLINK_ExecCommand("DisableConnectionTimeout", ...).   returns 0x01 (0000ms, 57213ms total)
T3370 3592:913 JLINK_GetHardwareVersion()  returns 0x13880 (0000ms, 57213ms total)
T3370 3592:913 JLINK_GetDLLVersion()  returns 64401 (0000ms, 57213ms total)
T3370 3592:913 JLINK_GetFirmwareString(...) (0000ms, 57213ms total)
T3370 3592:913 JLINK_GetDLLVersion()  returns 64401 (0000ms, 57213ms total)
T3370 3592:913 JLINK_GetCompileDateTime() (0000ms, 57213ms total)
T3370 3592:913 JLINK_GetFirmwareString(...) (0000ms, 57213ms total)
T3370 3592:913 JLINK_GetHardwareVersion()  returns 0x13880 (0000ms, 57213ms total)
T3370 3592:913 JLINK_TIF_Select(JLINKARM_TIF_SWD)  returns 0x00 (0001ms, 57214ms total)
T3370 3592:914 JLINK_SetSpeed(5000) (0000ms, 57214ms total)
T3370 3592:914 JLINK_GetId() >0x10B TIF>Found SW-DP with ID 0x1BA01477 >0x0D TIF> >0x28 TIF> >0x0D TIF> >0x28 TIF> >0x0D TIF> >0x28 TIF> >0x0D TIF> >0x28 TIF> >0x0D TIF> >0x21 TIF> >0x0D TIF> >0x28 TIF> >0x0D TIF> >0x28 TIF> >0x0D TIF> >0x28 TIF> >0x0D TIF> >0x21 TIF> >0x0D TIF> >0x21 TIF> >0x0D TIF> >0x28 TIF> >0x0D TIF> >0x21 TIF> >0x0D TIF> >0x21 TIF> >0x0D TIF> >0x28 TIF> >0x0D TIF> >0x21 TIF> >0x0D TIF> >0x21 TIF> >0x0D TIF> >0x28 TIF> >0x0D TIF> >0x21 TIF> >0x0D TIF> >0x21 TIF> >0x0D TIF>
 >0x28 TIF> >0x0D TIF> >0x21 TIF> >0x0D TIF> >0x21 TIF> >0x0D TIF> >0x28 TIF> >0x0D TIF> >0x21 TIF> >0x0D TIF> >0x21 TIF> >0x0D TIF> >0x28 TIF> >0x0D TIF> >0x21 TIF> >0x0D TIF> >0x21 TIF> >0x10B TIF>Found SW-DP with ID 0x1BA01477 >0x0D TIF> >0x28 TIF> >0x0D TIF> >0x28 TIF> >0x0D TIF> >0x28 TIF> >0x0D TIF> >0x28 TIF> >0x0D TIF> >0x21 TIF> >0x0D TIF> >0x28 TIF>Scanning AP map to find all available APs >0x0D TIF> >0x28 TIF> >0x0D TIF> >0x21 TIF> >0x0D TIF> >0x21 TIF> >0x0D TIF> >0x28 TIF> >0x0D TIF>
 >0x21 TIF> >0x0D TIF> >0x21 TIF>AP[1]: Stopped AP scan as end of AP map has been reachedAP[0]: AHB-AP (IDR: 0x14770011)Iterating through AP map to find AHB-AP to use >0x42 TIF> >0x28 TIF> >0x0D TIF> >0x28 TIF> >0x0D TIF> >0x21 TIF> >0x0D TIF> >0x21 TIF> >0x42 TIF> >0x28 TIF> >0x0D TIF> >0x28 TIF> >0x0D TIF> >0x28 TIF> >0x0D TIF> >0x21 TIF> >0x0D TIF> >0x21 TIF>AP[0]: Core foundAP[0]: AHB-AP ROM base: 0xE00FF000 >0x0D TIF> >0x28 TIF> >0x0D TIF> >0x28 TIF> >0x0D TIF> >0x28 TIF> >0x0D TIF> >0x21 TIF>
 >0x0D TIF> >0x21 TIF>CPUID register: 0x411FC231. Implementer code: 0x41 (ARM)Found Cortex-M3 r1p1, Little endian. -- Max. mem block: 0x00002408 -- CPU_ReadMem(4 bytes @ 0xE000EDF0) -- CPU_WriteMem(4 bytes @ 0xE000EDF0) -- CPU_ReadMem(4 bytes @ 0xE0002000)FPUnit: 6 code (BP) slots and 2 literal slots -- CPU_ReadMem(4 bytes @ 0xE000EDFC) -- CPU_WriteMem(4 bytes @ 0xE000EDFC) -- CPU_ReadMem(4 bytes @ 0xE0001000) -- CPU_WriteMem(4 bytes @ 0xE0001000) -- CPU_ReadMem(4 bytes @ 0xE000ED88)
 -- CPU_WriteMem(4 bytes @ 0xE000ED88) -- CPU_ReadMem(4 bytes @ 0xE000ED88) -- CPU_WriteMem(4 bytes @ 0xE000ED88)CoreSight components:ROMTbl[0] @ E00FF000 -- CPU_ReadMem(16 bytes @ 0xE00FF000) -- CPU_ReadMem(16 bytes @ 0xE000EFF0) -- CPU_ReadMem(16 bytes @ 0xE000EFE0)ROMTbl[0][0]: E000E000, CID: B105E00D, PID: 001BB000 SCS -- CPU_ReadMem(16 bytes @ 0xE0001FF0) -- CPU_ReadMem(16 bytes @ 0xE0001FE0)ROMTbl[0][1]: E0001000, CID: B105E00D, PID: 001BB002 DWT -- CPU_ReadMem(16 bytes @ 0xE0002FF0)
 -- CPU_ReadMem(16 bytes @ 0xE0002FE0)ROMTbl[0][2]: E0002000, CID: B105E00D, PID: 000BB003 FPB -- CPU_ReadMem(16 bytes @ 0xE0000FF0) -- CPU_ReadMem(16 bytes @ 0xE0000FE0)ROMTbl[0][3]: E0000000, CID: B105E00D, PID: 001BB001 ITM -- CPU_ReadMem(16 bytes @ 0xE00FF010) -- CPU_ReadMem(16 bytes @ 0xE0040FF0) -- CPU_ReadMem(16 bytes @ 0xE0040FE0)ROMTbl[0][4]: E0040000, CID: B105900D, PID: 001BB923 TPIU-Lite >0x0D TIF> >0x21 TIF>  returns 0x1BA01477 (0151ms, 57365ms total)
T3370 3593:065 JLINK_GetDLLVersion()  returns 64401 (0000ms, 57365ms total)
T3370 3593:065 JLINK_CORE_GetFound()  returns 0x30000FF (0000ms, 57365ms total)
T3370 3593:065 JLINK_GetDebugInfo(0x100 = JLINKARM_ROM_TABLE_ADDR_INDEX) -- Value=0xE00FF000  returns 0x00 (0000ms, 57365ms total)
T3370 3593:065 JLINK_GetDebugInfo(0x100 = JLINKARM_ROM_TABLE_ADDR_INDEX) -- Value=0xE00FF000  returns 0x00 (0000ms, 57365ms total)
T3370 3593:066 JLINK_GetDebugInfo(0x101 = JLINKARM_DEBUG_INFO_ETM_ADDR_INDEX) -- Value=0x00000000  returns 0x00 (0000ms, 57365ms total)
T3370 3593:066 JLINK_ReadMemEx(0xE0041FF0, 0x0010 Bytes, ..., Flags = 0x02000004) -- CPU_ReadMem(16 bytes @ 0xE0041FF0) - Data: 00 00 00 00 00 00 00 00 00 00 00 00 00 00 00 00  returns 0x10 (0001ms, 57366ms total)
T3370 3593:067 JLINK_GetDebugInfo(0x102 = JLINKARM_DEBUG_INFO_MTB_ADDR_INDEX) -- Value=0x00000000  returns 0x00 (0000ms, 57366ms total)
T3370 3593:067 JLINK_GetDebugInfo(0x103 = JLINKARM_DEBUG_INFO_TPIU_ADDR_INDEX) -- Value=0xE0040000  returns 0x00 (0000ms, 57366ms total)
T3370 3593:067 JLINK_GetDebugInfo(0x104 = JLINKARM_DEBUG_INFO_ITM_ADDR_INDEX) -- Value=0xE0000000  returns 0x00 (0000ms, 57366ms total)
T3370 3593:067 JLINK_GetDebugInfo(0x105 = JLINKARM_DEBUG_INFO_DWT_ADDR_INDEX) -- Value=0xE0001000  returns 0x00 (0000ms, 57366ms total)
T3370 3593:067 JLINK_GetDebugInfo(0x106 = JLINKARM_DEBUG_INFO_FPB_ADDR_INDEX) -- Value=0xE0002000  returns 0x00 (0000ms, 57366ms total)
T3370 3593:067 JLINK_GetDebugInfo(0x107 = JLINKARM_DEBUG_INFO_NVIC_ADDR_INDEX) -- Value=0xE000E000  returns 0x00 (0000ms, 57366ms total)
T3370 3593:067 JLINK_GetDebugInfo(0x10C = JLINKARM_DEBUG_INFO_DBG_ADDR_INDEX) -- Value=0xE000EDF0  returns 0x00 (0000ms, 57366ms total)
T3370 3593:067 JLINK_GetDebugInfo(0x01 = Unknown) -- Value=0x00000000  returns 0x00 (0000ms, 57366ms total)
T3370 3593:067 JLINK_ReadMemU32(0xE000ED00, 0x0001 Items, ...) -- CPU_ReadMem(4 bytes @ 0xE000ED00) - Data: 31 C2 1F 41  returns 1 (0001ms, 57367ms total)
T3370 3593:068 JLINK_GetDebugInfo(0x10F = JLINKARM_DEBUG_INFO_HAS_CORTEX_M_SECURITY_EXT_INDEX) -- Value=0x00000000  returns 0x00 (0000ms, 57367ms total)
T3370 3593:068 JLINK_SetResetType(JLINKARM_CM3_RESET_TYPE_NORMAL)  returns JLINKARM_CM3_RESET_TYPE_NORMAL (0000ms, 57367ms total)
T3370 3593:068 JLINK_Reset() -- CPU is running -- CPU_WriteMem(4 bytes @ 0xE000EDF0) -- CPU is running -- CPU_WriteMem(4 bytes @ 0xE000EDFC)Reset: Halt core after reset via DEMCR.VC_CORERESET. >0x35 TIF>Reset: Reset device via AIRCR.SYSRESETREQ. -- CPU is running -- CPU_WriteMem(4 bytes @ 0xE000ED0C) >0x0D TIF> >0x28 TIF> -- CPU_ReadMem(4 bytes @ 0xE000EDF0) -- CPU_ReadMem(4 bytes @ 0xE000EDF0) -- CPU is running -- CPU_WriteMem(4 bytes @ 0xE000EDF0) -- CPU is running -- CPU_WriteMem(4 bytes @ 0xE000EDFC)
 -- CPU_ReadMem(4 bytes @ 0xE000EDF0) -- CPU_WriteMem(4 bytes @ 0xE0002000) -- CPU_ReadMem(4 bytes @ 0xE000EDFC) -- CPU_ReadMem(4 bytes @ 0xE0001000) (0068ms, 57435ms total)
T3370 3593:136 JLINK_ReadReg(R15 (PC))  returns 0x08000188 (0000ms, 57435ms total)
T3370 3593:136 JLINK_ReadReg(XPSR)  returns 0x01000000 (0000ms, 57435ms total)
T3370 3593:136 JLINK_Halt()  returns 0x00 (0000ms, 57435ms total)
T3370 3593:136 JLINK_ReadMemU32(0xE000EDF0, 0x0001 Items, ...) -- CPU_ReadMem(4 bytes @ 0xE000EDF0) - Data: 03 00 03 00  returns 1 (0001ms, 57436ms total)
T3370 3593:137 JLINK_WriteU32(0xE000EDF0, 0xA05F0003) -- CPU_WriteMem(4 bytes @ 0xE000EDF0)  returns 0 (0000ms, 57436ms total)
T3370 3593:137 JLINK_WriteU32(0xE000EDFC, 0x01000000) -- CPU_WriteMem(4 bytes @ 0xE000EDFC)  returns 0 (0001ms, 57437ms total)
T3370 3593:138 JLINK_GetHWStatus(...)  returns 0x00 (0000ms, 57437ms total)
T3370 3593:138 JLINK_GetNumBPUnits(Type = 0xFFFFFF00)  returns 0x06 (0000ms, 57437ms total)
T3370 3593:138 JLINK_GetNumBPUnits(Type = 0xF0)  returns 0x2000 (0000ms, 57437ms total)
T3370 3593:138 JLINK_GetNumWPUnits()  returns 0x04 (0000ms, 57437ms total)
T3370 3593:138 JLINK_GetSpeed()  returns 0xFA0 (0000ms, 57437ms total)
T3370 3593:138 JLINK_ReadMemU32(0xE000E004, 0x0001 Items, ...) -- CPU_ReadMem(4 bytes @ 0xE000E004) - Data: 01 00 00 00  returns 1 (0001ms, 57438ms total)
T3370 3593:139 JLINK_ReadMemU32(0xE000E004, 0x0001 Items, ...) -- CPU_ReadMem(4 bytes @ 0xE000E004) - Data: 01 00 00 00  returns 1 (0000ms, 57438ms total)
T3370 3593:139 JLINK_WriteMemEx(0xE0001000, 0x001C Bytes, ..., Flags = 0x02000004) - Data: 01 00 00 00 00 00 00 00 00 00 00 00 00 00 00 00 ... -- CPU_WriteMem(28 bytes @ 0xE0001000)  returns 0x1C (0002ms, 57440ms total)
T3370 3593:141 JLINK_ReadReg(R15 (PC))  returns 0x08000188 (0000ms, 57440ms total)
T3370 3593:141 JLINK_ReadReg(XPSR)  returns 0x01000000 (0000ms, 57440ms total)
T3370 3593:150 JLINK_ReadMemEx(0xE0001004, 0x0004 Bytes, ..., Flags = 0x02000000) - Data: 00 00 00 00  returns 0x04 (0000ms, 57440ms total)
T3370 3593:234 JLINK_SetResetType(JLINKARM_CM3_RESET_TYPE_NORMAL)  returns JLINKARM_CM3_RESET_TYPE_NORMAL (0000ms, 57440ms total)
T3370 3593:234 JLINK_Reset() -- CPU_WriteMem(4 bytes @ 0xE000EDF0) -- CPU_WriteMem(4 bytes @ 0xE000EDFC)Reset: Halt core after reset via DEMCR.VC_CORERESET. >0x35 TIF>Reset: Reset device via AIRCR.SYSRESETREQ. -- CPU_WriteMem(4 bytes @ 0xE000ED0C) >0x0D TIF> >0x28 TIF> -- CPU_ReadMem(4 bytes @ 0xE000EDF0) -- CPU_ReadMem(4 bytes @ 0xE000EDF0) -- CPU_WriteMem(4 bytes @ 0xE000EDF0) -- CPU_WriteMem(4 bytes @ 0xE000EDFC) -- CPU_ReadMem(4 bytes @ 0xE000EDF0) -- CPU_WriteMem(4 bytes @ 0xE0002000)
 -- CPU_ReadMem(4 bytes @ 0xE000EDFC) -- CPU_ReadMem(4 bytes @ 0xE0001000) (0068ms, 57508ms total)
T3370 3593:302 JLINK_ReadReg(R15 (PC))  returns 0x08000188 (0000ms, 57508ms total)
T3370 3593:302 JLINK_ReadReg(XPSR)  returns 0x01000000 (0000ms, 57508ms total)
T3370 3593:415 JLINK_ReadMemEx(0x40005800, 0x0020 Bytes, ..., Flags = 0x02000004) -- CPU_ReadMem(32 bytes @ 0x40005800) - Data: 00 00 00 00 00 00 00 00 00 00 00 00 00 00 00 00 ...  returns 0x20 (0000ms, 57508ms total)
T3370 3593:415 JLINK_ReadMemEx(0x40005820, 0x0004 Bytes, ..., Flags = 0x02000004) -- CPU_ReadMem(4 bytes @ 0x40005820) - Data: 00 00 00 00  returns 0x04 (0001ms, 57509ms total)
T3370 3593:456 JLINK_ReadMemEx(0x40013800, 0x0018 Bytes, ..., Flags = 0x02000004) -- CPU_ReadMem(24 bytes @ 0x40013800) - Data: 00 00 00 00 00 00 00 00 00 00 00 00 00 00 00 00 ...  returns 0x18 (0000ms, 57509ms total)
T3370 3593:456 JLINK_ReadMemEx(0x40013818, 0x0004 Bytes, ..., Flags = 0x02000004) -- CPU_ReadMem(4 bytes @ 0x40013818) - Data: 00 00 00 00  returns 0x04 (0000ms, 57509ms total)
T3370 3593:496 JLINK_ReadMemEx(0x40005C00, 0x001C Bytes, ..., Flags = 0x02000004) -- CPU_ReadMem(28 bytes @ 0x40005C00) - Data: 00 00 00 00 00 00 00 00 00 00 00 00 00 00 00 00 ...  returns 0x1C (0001ms, 57510ms total)
T3370 3593:497 JLINK_ReadMemEx(0x40005C1C, 0x0004 Bytes, ..., Flags = 0x02000004) -- CPU_ReadMem(4 bytes @ 0x40005C1C) - Data: 00 00 00 00  returns 0x04 (0000ms, 57510ms total)
T3370 3593:497 JLINK_ReadMemEx(0x40005C40, 0x0010 Bytes, ..., Flags = 0x02000004) -- CPU_ReadMem(16 bytes @ 0x40005C40) - Data: 00 00 00 00 00 00 00 00 00 00 00 00 00 00 00 00  returns 0x10 (0001ms, 57511ms total)
T3370 3593:498 JLINK_ReadMemEx(0x40005C50, 0x0004 Bytes, ..., Flags = 0x02000004) -- CPU_ReadMem(4 bytes @ 0x40005C50) - Data: 00 00 00 00  returns 0x04 (0000ms, 57511ms total)
T3370 3594:839 JLINK_ReadReg(R0)  returns 0x000001F4 (0001ms, 57512ms total)
T3370 3594:840 JLINK_ReadReg(R1)  returns 0x0000006F (0000ms, 57512ms total)
T3370 3594:840 JLINK_ReadReg(R2)  returns 0x00001649 (0000ms, 57512ms total)
T3370 3594:840 JLINK_ReadReg(R3)  returns 0x00002AFF (0000ms, 57512ms total)
T3370 3594:840 JLINK_ReadReg(R4)  returns 0x00000000 (0000ms, 57512ms total)
T3370 3594:840 JLINK_ReadReg(R5)  returns 0x20000048 (0000ms, 57512ms total)
T3370 3594:840 JLINK_ReadReg(R6)  returns 0x00000000 (0000ms, 57512ms total)
T3370 3594:840 JLINK_ReadReg(R7)  returns 0x00000000 (0000ms, 57512ms total)
T3370 3594:840 JLINK_ReadReg(R8)  returns 0x00000000 (0000ms, 57512ms total)
T3370 3594:840 JLINK_ReadReg(R9)  returns 0x20000160 (0000ms, 57512ms total)
T3370 3594:840 JLINK_ReadReg(R10)  returns 0x08001858 (0000ms, 57512ms total)
T3370 3594:840 JLINK_ReadReg(R11)  returns 0x00000000 (0000ms, 57512ms total)
T3370 3594:840 JLINK_ReadReg(R12)  returns 0x00000C00 (0000ms, 57512ms total)
T3370 3594:840 JLINK_ReadReg(R13 (SP))  returns 0x200006A8 (0000ms, 57512ms total)
T3370 3594:840 JLINK_ReadReg(R14)  returns 0xFFFFFFFF (0000ms, 57512ms total)
T3370 3594:840 JLINK_ReadReg(R15 (PC))  returns 0x08000188 (0000ms, 57512ms total)
T3370 3594:840 JLINK_ReadReg(XPSR)  returns 0x01000000 (0000ms, 57512ms total)
T3370 3594:840 JLINK_ReadReg(MSP)  returns 0x200006A8 (0000ms, 57512ms total)
T3370 3594:840 JLINK_ReadReg(PSP)  returns 0x20001000 (0000ms, 57512ms total)
T3370 3594:840 JLINK_ReadReg(CFBP)  returns 0x00000000 (0000ms, 57512ms total)
T036C 3594:947 JLINK_ReadMemEx(0x08000188, 0x0002 Bytes, ..., Flags = 0x02000000) -- CPU_ReadMem(64 bytes @ 0x08000180) -- Updating C cache (64 bytes @ 0x08000180) -- Read from C cache (2 bytes @ 0x08000188) - Data: 09 48  returns 0x02 (0001ms, 57513ms total)
T036C 3594:948 JLINK_SetBPEx(Addr = 0x0800114C, Type = 0xFFFFFFF2)  returns 0x00000001 (0000ms, 57513ms total)
T036C 3594:948 JLINK_Go() -- CPU_WriteMem(4 bytes @ 0xE0002000) -- CPU_ReadMem(4 bytes @ 0xE0001000) -- CPU_WriteMem(4 bytes @ 0xE0002008) -- CPU_WriteMem(4 bytes @ 0xE000200C) -- CPU_WriteMem(4 bytes @ 0xE0002010) -- CPU_WriteMem(4 bytes @ 0xE0002014) -- CPU_WriteMem(4 bytes @ 0xE0002018) -- CPU_WriteMem(4 bytes @ 0xE000201C) -- CPU_WriteMem(4 bytes @ 0xE0001004) (0005ms, 57518ms total)
T036C 3595:054 JLINK_IsHalted()  returns TRUE (0002ms, 57520ms total)
T036C 3595:056 JLINK_Halt()  returns 0x00 (0000ms, 57518ms total)
T036C 3595:056 JLINK_IsHalted()  returns TRUE (0000ms, 57518ms total)
T036C 3595:056 JLINK_IsHalted()  returns TRUE (0000ms, 57518ms total)
T036C 3595:056 JLINK_IsHalted()  returns TRUE (0000ms, 57518ms total)
T036C 3595:056 JLINK_ReadReg(R15 (PC))  returns 0x0800114C (0000ms, 57518ms total)
T036C 3595:056 JLINK_ReadReg(XPSR)  returns 0x21000000 (0000ms, 57518ms total)
T036C 3595:056 JLINK_ClrBPEx(BPHandle = 0x00000001)  returns 0x00 (0000ms, 57518ms total)
T036C 3595:056 JLINK_ReadMemU32(0xE000ED30, 0x0001 Items, ...) -- CPU_ReadMem(4 bytes @ 0xE000ED30) - Data: 03 00 00 00  returns 1 (0001ms, 57519ms total)
T036C 3595:057 JLINK_ReadMemU32(0xE0001028, 0x0001 Items, ...) -- CPU_ReadMem(4 bytes @ 0xE0001028) - Data: 00 00 00 00  returns 1 (0000ms, 57519ms total)
T036C 3595:057 JLINK_ReadMemU32(0xE0001038, 0x0001 Items, ...) -- CPU_ReadMem(4 bytes @ 0xE0001038) - Data: 00 02 00 00  returns 1 (0001ms, 57520ms total)
T036C 3595:058 JLINK_ReadMemU32(0xE0001048, 0x0001 Items, ...) -- CPU_ReadMem(4 bytes @ 0xE0001048) - Data: 00 00 00 00  returns 1 (0000ms, 57520ms total)
T036C 3595:058 JLINK_ReadMemU32(0xE0001058, 0x0001 Items, ...) -- CPU_ReadMem(4 bytes @ 0xE0001058) - Data: 00 00 00 00  returns 1 (0001ms, 57521ms total)
T036C 3595:059 JLINK_ReadReg(R0)  returns 0x200000A8 (0000ms, 57521ms total)
T036C 3595:059 JLINK_ReadReg(R1)  returns 0x200002A8 (0000ms, 57521ms total)
T036C 3595:059 JLINK_ReadReg(R2)  returns 0x200002A8 (0000ms, 57521ms total)
T036C 3595:059 JLINK_ReadReg(R3)  returns 0x200002A8 (0000ms, 57521ms total)
T036C 3595:059 JLINK_ReadReg(R4)  returns 0x00000000 (0000ms, 57521ms total)
T036C 3595:059 JLINK_ReadReg(R5)  returns 0x20000048 (0000ms, 57521ms total)
T036C 3595:059 JLINK_ReadReg(R6)  returns 0x00000000 (0000ms, 57521ms total)
T036C 3595:059 JLINK_ReadReg(R7)  returns 0x00000000 (0000ms, 57521ms total)
T036C 3595:059 JLINK_ReadReg(R8)  returns 0x00000000 (0000ms, 57521ms total)
T036C 3595:059 JLINK_ReadReg(R9)  returns 0x20000160 (0000ms, 57521ms total)
T036C 3595:059 JLINK_ReadReg(R10)  returns 0x08001858 (0000ms, 57521ms total)
T036C 3595:059 JLINK_ReadReg(R11)  returns 0x00000000 (0000ms, 57521ms total)
T036C 3595:059 JLINK_ReadReg(R12)  returns 0x20000088 (0000ms, 57521ms total)
T036C 3595:059 JLINK_ReadReg(R13 (SP))  returns 0x200006A8 (0000ms, 57521ms total)
T036C 3595:059 JLINK_ReadReg(R14)  returns 0x08000177 (0000ms, 57521ms total)
T036C 3595:059 JLINK_ReadReg(R15 (PC))  returns 0x0800114C (0000ms, 57521ms total)
T036C 3595:059 JLINK_ReadReg(XPSR)  returns 0x21000000 (0000ms, 57521ms total)
T036C 3595:059 JLINK_ReadReg(MSP)  returns 0x200006A8 (0000ms, 57521ms total)
T036C 3595:059 JLINK_ReadReg(PSP)  returns 0x20001000 (0000ms, 57521ms total)
T036C 3595:059 JLINK_ReadReg(CFBP)  returns 0x00000000 (0000ms, 57521ms total)
T3370 3595:059 JLINK_ReadMemU32(0xE0001004, 0x0001 Items, ...) -- CPU_ReadMem(4 bytes @ 0xE0001004) - Data: F3 13 00 00  returns 1 (0001ms, 57522ms total)
T3370 3595:060 JLINK_ReadMemEx(0x40005800, 0x0020 Bytes, ..., Flags = 0x02000004) -- CPU_ReadMem(32 bytes @ 0x40005800) - Data: 00 00 00 00 00 00 00 00 00 00 00 00 00 00 00 00 ...  returns 0x20 (0001ms, 57523ms total)
T3370 3595:061 JLINK_ReadMemEx(0x40005820, 0x0004 Bytes, ..., Flags = 0x02000004) -- CPU_ReadMem(4 bytes @ 0x40005820) - Data: 00 00 00 00  returns 0x04 (0000ms, 57523ms total)
T3370 3595:062 JLINK_ReadMemEx(0x40005C00, 0x001C Bytes, ..., Flags = 0x02000004) -- CPU_ReadMem(28 bytes @ 0x40005C00) - Data: 00 00 00 00 00 00 00 00 00 00 00 00 00 00 00 00 ...  returns 0x1C (0000ms, 57523ms total)
T3370 3595:062 JLINK_ReadMemEx(0x40005C1C, 0x0004 Bytes, ..., Flags = 0x02000004) -- CPU_ReadMem(4 bytes @ 0x40005C1C) - Data: 00 00 00 00  returns 0x04 (0001ms, 57524ms total)
T3370 3595:063 JLINK_ReadMemEx(0x40005C40, 0x0010 Bytes, ..., Flags = 0x02000004) -- CPU_ReadMem(16 bytes @ 0x40005C40) - Data: 00 00 00 00 00 00 00 00 00 00 00 00 00 00 00 00  returns 0x10 (0000ms, 57524ms total)
T3370 3595:063 JLINK_ReadMemEx(0x40005C50, 0x0004 Bytes, ..., Flags = 0x02000004) -- CPU_ReadMem(4 bytes @ 0x40005C50) - Data: 00 00 00 00  returns 0x04 (0001ms, 57525ms total)
T3370 3595:064 JLINK_ReadMemEx(0x40013800, 0x0018 Bytes, ..., Flags = 0x02000004) -- CPU_ReadMem(24 bytes @ 0x40013800) - Data: 00 00 00 00 00 00 00 00 00 00 00 00 00 00 00 00 ...  returns 0x18 (0001ms, 57526ms total)
T3370 3595:065 JLINK_ReadMemEx(0x40013818, 0x0004 Bytes, ..., Flags = 0x02000004) -- CPU_ReadMem(4 bytes @ 0x40013818) - Data: 00 00 00 00  returns 0x04 (0000ms, 57526ms total)
T036C 3597:023 JLINK_ReadMemEx(0x0800114C, 0x0002 Bytes, ..., Flags = 0x02000000) -- CPU_ReadMem(64 bytes @ 0x08001140) -- Updating C cache (64 bytes @ 0x08001140) -- Read from C cache (2 bytes @ 0x0800114C) - Data: 70 B5  returns 0x02 (0001ms, 57527ms total)
T036C 3597:024 JLINK_SetBPEx(Addr = 0x08000176, Type = 0xFFFFFFF2)  returns 0x00000002 (0000ms, 57527ms total)
T036C 3597:024 JLINK_Go() -- CPU_WriteMem(4 bytes @ 0xE0002000) -- CPU_ReadMem(4 bytes @ 0xE0001000) -- CPU_WriteMem(4 bytes @ 0xE0002008) (0002ms, 57529ms total)
T036C 3597:127 JLINK_IsHalted()  returns FALSE (0001ms, 57530ms total)
T036C 3597:228 JLINK_IsHalted()  returns FALSE (0000ms, 57529ms total)
T036C 3597:330 JLINK_IsHalted()  returns FALSE (0000ms, 57529ms total)
T036C 3597:431 JLINK_IsHalted()  returns FALSE (0000ms, 57529ms total)
T036C 3597:532 JLINK_IsHalted()  returns FALSE (0000ms, 57529ms total)
T036C 3597:633 JLINK_ReadMemU32(0xE0001004, 0x0001 Items, ...) -- CPU_ReadMem(4 bytes @ 0xE0001004) - Data: 64 3B 9B 02  returns 1 (0000ms, 57529ms total)
T3370 3597:634 JLINK_ReadMemEx(0x40005800, 0x0020 Bytes, ..., Flags = 0x02000004) -- CPU_ReadMem(32 bytes @ 0x40005800) - Data: 01 00 00 00 24 00 00 00 00 40 00 00 00 00 00 00 ...  returns 0x20 (0001ms, 57530ms total)
T3370 3597:635 JLINK_ReadMemEx(0x40005820, 0x0004 Bytes, ..., Flags = 0x02000004) -- CPU_ReadMem(4 bytes @ 0x40005820) - Data: 25 00 00 00  returns 0x04 (0000ms, 57530ms total)
T3370 3597:637 JLINK_ReadMemEx(0x40005C00, 0x001C Bytes, ..., Flags = 0x02000004) -- CPU_ReadMem(28 bytes @ 0x40005C00) - Data: 00 00 00 00 00 00 00 00 00 00 00 00 00 00 00 00 ...  returns 0x1C (0001ms, 57531ms total)
T3370 3597:638 JLINK_ReadMemEx(0x40005C1C, 0x0004 Bytes, ..., Flags = 0x02000004) -- CPU_ReadMem(4 bytes @ 0x40005C1C) - Data: 00 00 00 00  returns 0x04 (0001ms, 57532ms total)
T3370 3597:639 JLINK_ReadMemEx(0x40005C40, 0x0010 Bytes, ..., Flags = 0x02000004) -- CPU_ReadMem(16 bytes @ 0x40005C40) - Data: 00 00 00 00 00 00 00 00 00 00 00 00 00 00 00 00  returns 0x10 (0000ms, 57532ms total)
T3370 3597:639 JLINK_ReadMemEx(0x40005C50, 0x0004 Bytes, ..., Flags = 0x02000004) -- CPU_ReadMem(4 bytes @ 0x40005C50) - Data: 00 00 00 00  returns 0x04 (0001ms, 57533ms total)
T3370 3597:641 JLINK_ReadMemEx(0x40013800, 0x0018 Bytes, ..., Flags = 0x02000004) -- CPU_ReadMem(24 bytes @ 0x40013800) - Data: C0 00 00 00 00 00 00 00 71 02 00 00 2C 20 00 00 ...  returns 0x18 (0001ms, 57534ms total)
T3370 3597:642 JLINK_ReadMemEx(0x40013818, 0x0004 Bytes, ..., Flags = 0x02000004) -- CPU_ReadMem(4 bytes @ 0x40013818) - Data: 00 00 00 00  returns 0x04 (0001ms, 57535ms total)
T036C 3597:660 JLINK_IsHalted()  returns FALSE (0000ms, 57535ms total)
T036C 3597:761 JLINK_IsHalted()  returns FALSE (0000ms, 57535ms total)
T036C 3597:862 JLINK_IsHalted()  returns FALSE (0000ms, 57535ms total)
T036C 3597:964 JLINK_IsHalted()  returns FALSE (0000ms, 57535ms total)
T036C 3598:065 JLINK_IsHalted()  returns FALSE (0001ms, 57536ms total)
T036C 3598:167 JLINK_ReadMemU32(0xE0001004, 0x0001 Items, ...) - Data: 64 3B 9B 02  returns 1 (0000ms, 57535ms total)
T3370 3598:167 JLINK_ReadMemEx(0x40005800, 0x0020 Bytes, ..., Flags = 0x02000004) -- CPU_ReadMem(32 bytes @ 0x40005800) - Data: 01 00 00 00 24 00 00 00 00 40 00 00 00 00 00 00 ...  returns 0x20 (0001ms, 57536ms total)
T3370 3598:168 JLINK_ReadMemEx(0x40005820, 0x0004 Bytes, ..., Flags = 0x02000004) -- CPU_ReadMem(4 bytes @ 0x40005820) - Data: 25 00 00 00  returns 0x04 (0000ms, 57536ms total)
T3370 3598:169 JLINK_ReadMemEx(0x40005C00, 0x001C Bytes, ..., Flags = 0x02000004) -- CPU_ReadMem(28 bytes @ 0x40005C00) - Data: 00 00 00 00 00 00 00 00 00 00 00 00 00 00 00 00 ...  returns 0x1C (0001ms, 57537ms total)
T3370 3598:170 JLINK_ReadMemEx(0x40005C1C, 0x0004 Bytes, ..., Flags = 0x02000004) -- CPU_ReadMem(4 bytes @ 0x40005C1C) - Data: 00 00 00 00  returns 0x04 (0000ms, 57537ms total)
T3370 3598:170 JLINK_ReadMemEx(0x40005C40, 0x0010 Bytes, ..., Flags = 0x02000004) -- CPU_ReadMem(16 bytes @ 0x40005C40) - Data: 00 00 00 00 00 00 00 00 00 00 00 00 00 00 00 00  returns 0x10 (0001ms, 57538ms total)
T3370 3598:171 JLINK_ReadMemEx(0x40005C50, 0x0004 Bytes, ..., Flags = 0x02000004) -- CPU_ReadMem(4 bytes @ 0x40005C50) - Data: 00 00 00 00  returns 0x04 (0000ms, 57538ms total)
T3370 3598:172 JLINK_ReadMemEx(0x40013800, 0x0018 Bytes, ..., Flags = 0x02000004) -- CPU_ReadMem(24 bytes @ 0x40013800) - Data: C0 00 00 00 00 00 00 00 71 02 00 00 2C 20 00 00 ...  returns 0x18 (0000ms, 57538ms total)
T3370 3598:172 JLINK_ReadMemEx(0x40013818, 0x0004 Bytes, ..., Flags = 0x02000004) -- CPU_ReadMem(4 bytes @ 0x40013818) - Data: 00 00 00 00  returns 0x04 (0001ms, 57539ms total)
T036C 3598:173 JLINK_IsHalted()  returns FALSE (0000ms, 57539ms total)
T036C 3598:274 JLINK_IsHalted()  returns FALSE (0000ms, 57539ms total)
T036C 3598:376 JLINK_IsHalted()  returns FALSE (0000ms, 57539ms total)
T036C 3598:477 JLINK_IsHalted()  returns FALSE (0001ms, 57540ms total)
T036C 3598:578 JLINK_IsHalted()  returns FALSE (0001ms, 57540ms total)
T036C 3598:679 JLINK_IsHalted()  returns FALSE (0000ms, 57539ms total)
T036C 3598:780 JLINK_ReadMemU32(0xE0001004, 0x0001 Items, ...) - Data: 64 3B 9B 02  returns 1 (0000ms, 57539ms total)
T3370 3598:780 JLINK_ReadMemEx(0x40005800, 0x0020 Bytes, ..., Flags = 0x02000004) -- CPU_ReadMem(32 bytes @ 0x40005800) - Data: 01 00 00 00 24 00 00 00 00 40 00 00 00 00 00 00 ...  returns 0x20 (0001ms, 57540ms total)
T3370 3598:781 JLINK_ReadMemEx(0x40005820, 0x0004 Bytes, ..., Flags = 0x02000004) -- CPU_ReadMem(4 bytes @ 0x40005820) - Data: 25 00 00 00  returns 0x04 (0001ms, 57541ms total)
